
T3C78 000:411 SEGGER J-Link V4.80g Log File (0000ms, 0278ms total)
T3C78 000:411 DLL Compiled: Feb 13 2014 20:50:02 (0000ms, 0278ms total)
T3C78 000:411 Logging started @ 2019-03-31 17:11 (0000ms, 0278ms total)
T3C78 000:411 JLINK_SetWarnOutHandler(...) (0000ms, 0278ms total)
T3C78 000:411 JLINK_OpenEx(...)
Firmware: J-Link ARM-OB STM32 compiled Aug 22 2012 19:52:04
Hardware: V7.00
S/N: 20090928
Feature(s): RDI,FlashDL,FlashBP,JFlash,GDBFull  returns O.K. (0274ms, 0552ms total)
T3C78 000:685 JLINK_SetErrorOutHandler(...) (0000ms, 0552ms total)
T3C78 000:685 JLINK_ExecCommand("ProjectFile = "C:\Users\Administrator.PC-20170706YCLW\Desktop\2.0\Project\RVMDK£¨uv5£©\JLinkSettings.ini"", ...)  returns 0x00 (0001ms, 0553ms total)
T3C78 000:690 JLINK_ExecCommand("Device = STM32F103RC", ...)Device "STM32F103RC" selected (256 KB flash, 48 KB RAM).  returns 0x00 (0005ms, 0558ms total)
T3C78 000:695 JLINK_ExecCommand("DisableConnectionTimeout", ...)  returns 0x01 (0000ms, 0558ms total)
T3C78 000:695 JLINK_GetHardwareVersion()  returns 0x11170 (0001ms, 0559ms total)
T3C78 000:696 JLINK_GetDLLVersion()  returns 48007 (0000ms, 0559ms total)
T3C78 000:696 JLINK_GetFirmwareString(...) (0000ms, 0559ms total)
T3C78 000:713 JLINK_GetDLLVersion()  returns 48007 (0000ms, 0559ms total)
T3C78 000:713 JLINK_GetCompileDateTime() (0000ms, 0559ms total)
T3C78 000:718 JLINK_GetFirmwareString(...) (0000ms, 0559ms total)
T3C78 000:722 JLINK_GetHardwareVersion()  returns 0x11170 (0000ms, 0559ms total)
T3C78 000:728 JLINK_TIF_Select(JLINKARM_TIF_SWD)  returns 0x00 (0004ms, 0563ms total)
T3C78 000:732 JLINK_SetSpeed(2000) (0001ms, 0564ms total)
T3C78 000:733 JLINK_GetId() >0x108 TIF>Found SWD-DP with ID 0x1BA01477 >0x0D TIF> >0x28 TIF> >0x0D TIF> >0x28 TIF> >0x0D TIF> >0x21 TIF> >0x0D TIF> >0x28 TIF> >0x0D TIF> >0x28 TIF> >0x0D TIF> >0x28 TIF> >0x0D TIF> >0x21 TIF> >0x0D TIF> >0x21 TIF> >0x0D TIF> >0x28 TIF> >0x0D TIF> >0x21 TIF> >0x0D TIF> >0x21 TIF> >0x108 TIF>Found SWD-DP with ID 0x1BA01477 >0x0D TIF> >0x21 TIF> >0x0D TIF> >0x28 TIF> >0x0D TIF> >0x28 TIF> >0x0D TIF> >0x21 TIF> >0x0D TIF> >0x28 TIF> >0x0D TIF> >0x21 TIF> >0x0D TIF> >0x21 TIF>
 >0x0D TIF> >0x21 TIF> >0x0D TIF> >0x21 TIF> >0x0D TIF> >0x28 TIF> >0x0D TIF> >0x28 TIF> >0x0D TIF> >0x21 TIF> >0x0D TIF> >0x28 TIF> >0x0D TIF> >0x28 TIF> >0x0D TIF> >0x28 TIF> >0x0D TIF> >0x21 TIF> >0x0D TIF> >0x21 TIF> >0x0D TIF> >0x28 TIF> >0x0D TIF> >0x21 TIF> >0x0D TIF> >0x21 TIF>Found Cortex-M3 r1p1, Little endian. -- CPU_WriteMem(4 bytes @ 0xE0002000) -- CPU_ReadMem(4 bytes @ 0xE000EDF0) -- CPU_ReadMem(4 bytes @ 0xE0002000)FPUnit: 6 code (BP) slots and 2 literal slots
 -- CPU_ReadMem(4 bytes @ 0xE000EDFC) -- CPU_ReadMem(4 bytes @ 0xE0001000) -- CPU_WriteMem(4 bytes @ 0xE0001000) -- CPU_ReadMem(4 bytes @ 0xE00FF010)TPIU fitted. -- CPU_ReadMem(4 bytes @ 0xE00FF014)ETM fitted. -- CPU_ReadMem(4 bytes @ 0xE00FF018) >0x0D TIF> >0x21 TIF>  returns 0x1BA01477 (0110ms, 0674ms total)
T3C78 000:843 JLINK_GetDeviceFamily()  returns 3 (0000ms, 0674ms total)
T3C78 000:848 JLINK_ReadMem (0xE00FFFF0, 0x0010 Bytes, ...) -- CPU is running -- CPU_ReadMem(16 bytes @ 0xE00FFFF0) -- Data:  0D 00 00 00 10 00 00 00 05 00 00 00 B1 00 00 00  returns 0x00 (0002ms, 0676ms total)
T3C78 000:850 JLINK_ReadMem (0xE00FFFD0, 0x0020 Bytes, ...) -- CPU is running -- CPU_ReadMem(32 bytes @ 0xE00FFFD0) -- Data:  00 00 00 00 00 00 00 00 00 00 00 00 00 00 00 00 ...  returns 0x00 (0002ms, 0678ms total)
T3C78 000:852 JLINK_ReadMem (0xE00FF000, 0x0018 Bytes, ...) -- CPU is running -- CPU_ReadMem(24 bytes @ 0xE00FF000) -- Data:  03 F0 F0 FF 03 20 F0 FF 03 30 F0 FF 03 10 F0 FF ...  returns 0x00 (0002ms, 0680ms total)
T3C78 000:854 JLINK_ReadMemU32(0xE000ED00, 0x0001 Items, ...) -- CPU is running -- CPU_ReadMem(4 bytes @ 0xE000ED00) -- Data:  31 C2 1F 41  returns 0x01 (0002ms, 0682ms total)
T3C78 000:856 JLINK_SetResetType(JLINKARM_RESET_TYPE_NORMAL)  returns JLINKARM_RESET_TYPE_NORMAL (0000ms, 0682ms total)
T3C78 000:856 JLINK_Reset() -- CPU is running -- CPU_WriteMem(4 bytes @ 0xE000EDF0) -- CPU is running -- CPU_WriteMem(4 bytes @ 0xE000EDFC) >0x35 TIF> -- CPU is running -- CPU_WriteMem(4 bytes @ 0xE000ED0C) -- CPU is running -- CPU_ReadMem(4 bytes @ 0xE000EDF0) -- CPU is running -- CPU_ReadMem(4 bytes @ 0xE000EDF0) -- CPU is running -- CPU_WriteMem(4 bytes @ 0xE000EDF0) -- CPU is running -- CPU_WriteMem(4 bytes @ 0xE000EDFC) -- CPU is running -- CPU_ReadMem(4 bytes @ 0xE000EDF0)
 -- CPU_WriteMem(4 bytes @ 0xE0002000) -- CPU_ReadMem(4 bytes @ 0xE000EDFC) -- CPU_ReadMem(4 bytes @ 0xE0001000) (0033ms, 0715ms total)
T3C78 000:889 JLINK_Halt()  returns 0x00 (0000ms, 0715ms total)
T3C78 000:889 JLINK_IsHalted()  returns TRUE (0000ms, 0715ms total)
T3C78 000:889 JLINK_ReadMemU32(0xE000EDF0, 0x0001 Items, ...) -- CPU_ReadMem(4 bytes @ 0xE000EDF0) -- Data:  03 00 03 00  returns 0x01 (0002ms, 0717ms total)
T3C78 000:891 JLINK_WriteU32(0xE000EDF0, 0xA05F0003) -- CPU_WriteMem(4 bytes @ 0xE000EDF0)  returns 0x00 (0001ms, 0718ms total)
T3C78 000:892 JLINK_WriteU32(0xE000EDFC, 0x01000000) -- CPU_WriteMem(4 bytes @ 0xE000EDFC)  returns 0x00 (0002ms, 0720ms total)
T3C78 000:901 JLINK_GetHWStatus(...)  returns 0x00 (0002ms, 0722ms total)
T3C78 000:910 JLINK_GetNumBPUnits(Type = 0xFFFFFF00)  returns 0x06 (0000ms, 0722ms total)
T3C78 000:910 JLINK_GetNumBPUnits(Type = 0xF0)  returns 0x2000 (0000ms, 0722ms total)
T3C78 000:910 JLINK_GetNumWPUnits()  returns 0x04 (0000ms, 0722ms total)
T3C78 000:916 JLINK_GetSpeed()  returns 0x7D0 (0000ms, 0722ms total)
T3C78 000:919 JLINK_ReadMemU32(0xE000E004, 0x0001 Items, ...) -- CPU_ReadMem(4 bytes @ 0xE000E004) -- Data:  01 00 00 00  returns 0x01 (0002ms, 0724ms total)
T3C78 000:921 JLINK_ReadMemU32(0xE000E004, 0x0001 Items, ...) -- CPU_ReadMem(4 bytes @ 0xE000E004) -- Data:  01 00 00 00  returns 0x01 (0001ms, 0725ms total)
T3C78 000:922 JLINK_WriteMem(0xE0001000, 0x001C Bytes, ...) -- Data:  01 00 00 00 00 00 00 00 00 00 00 00 00 00 00 00 ... -- CPU_WriteMem(28 bytes @ 0xE0001000)  returns 0x1C (0002ms, 0727ms total)
T3C78 000:924 JLINK_ReadMem (0xE0001000, 0x001C Bytes, ...) -- CPU_ReadMem(28 bytes @ 0xE0001000) -- Data:  01 00 00 40 00 00 00 00 00 00 00 00 00 00 00 00 ...  returns 0x00 (0002ms, 0729ms total)
T3C78 000:926 JLINK_Halt()  returns 0x00 (0000ms, 0729ms total)
T3C78 000:926 JLINK_IsHalted()  returns TRUE (0000ms, 0729ms total)
T3C78 000:930 JLINK_WriteMem(0x20000000, 0x0164 Bytes, ...) -- Data:  00 BE 0A E0 0D 78 2D 06 68 40 08 24 40 00 00 D3 ... -- CPU_WriteMem(356 bytes @ 0x20000000)  returns 0x164 (0005ms, 0734ms total)
T3C78 000:935 JLINK_WriteReg(R0, 0x08000000)  returns 0x00 (0000ms, 0734ms total)
T3C78 000:935 JLINK_WriteReg(R1, 0x00B71B00)  returns 0x00 (0000ms, 0734ms total)
T3C78 000:935 JLINK_WriteReg(R2, 0x00000001)  returns 0x00 (0000ms, 0734ms total)
T3C78 000:935 JLINK_WriteReg(R3, 0x00000000)  returns 0x00 (0000ms, 0734ms total)
T3C78 000:935 JLINK_WriteReg(R4, 0x00000000)  returns 0x00 (0000ms, 0734ms total)
T3C78 000:935 JLINK_WriteReg(R5, 0x00000000)  returns 0x00 (0000ms, 0734ms total)
T3C78 000:935 JLINK_WriteReg(R6, 0x00000000)  returns 0x00 (0000ms, 0734ms total)
T3C78 000:935 JLINK_WriteReg(R7, 0x00000000)  returns 0x00 (0000ms, 0734ms total)
T3C78 000:935 JLINK_WriteReg(R8, 0x00000000)  returns 0x00 (0000ms, 0734ms total)
T3C78 000:935 JLINK_WriteReg(R9, 0x20000160)  returns 0x00 (0000ms, 0734ms total)
T3C78 000:935 JLINK_WriteReg(R10, 0x00000000)  returns 0x00 (0000ms, 0734ms total)
T3C78 000:935 JLINK_WriteReg(R11, 0x00000000)  returns 0x00 (0000ms, 0734ms total)
T3C78 000:935 JLINK_WriteReg(R12, 0x00000000)  returns 0x00 (0000ms, 0734ms total)
T3C78 000:935 JLINK_WriteReg(R13 (SP), 0x20001000)  returns 0x00 (0000ms, 0734ms total)
T3C78 000:935 JLINK_WriteReg(R14, 0x20000001)  returns 0x00 (0001ms, 0735ms total)
T3C78 000:936 JLINK_WriteReg(R15 (PC), 0x20000038)  returns 0x00 (0000ms, 0735ms total)
T3C78 000:936 JLINK_WriteReg(XPSR, 0x01000000)  returns 0x00 (0000ms, 0735ms total)
T3C78 000:936 JLINK_WriteReg(MSP, 0x20001000)  returns 0x00 (0000ms, 0735ms total)
T3C78 000:936 JLINK_WriteReg(PSP, 0x20001000)  returns 0x00 (0000ms, 0735ms total)
T3C78 000:936 JLINK_WriteReg(CFBP, 0x00000000)  returns 0x00 (0000ms, 0735ms total)
T3C78 000:936 JLINK_SetBPEx(Addr = 0x20000000, Type = 0xFFFFFFF2) -- CPU_ReadMem(2 bytes @ 0x20000000)  returns 0x00000001 (0001ms, 0736ms total)
T3C78 000:937 JLINK_Go() -- CPU_WriteMem(2 bytes @ 0x20000000) -- CPU_WriteMem(4 bytes @ 0xE0002008) -- CPU_WriteMem(4 bytes @ 0xE000200C) -- CPU_WriteMem(4 bytes @ 0xE0002010) -- CPU_WriteMem(4 bytes @ 0xE0002014) -- CPU_WriteMem(4 bytes @ 0xE0002018) -- CPU_WriteMem(4 bytes @ 0xE000201C) -- CPU_WriteMem(4 bytes @ 0xE0001004) (0016ms, 0752ms total)
T3C78 000:953 JLINK_IsHalted() -- CPU_ReadMem(2 bytes @ 0x20000000)  returns TRUE (0007ms, 0759ms total)
T3C78 000:960 JLINK_ReadReg(R15 (PC))  returns 0x20000000 (0000ms, 0752ms total)
T3C78 000:960 JLINK_ClrBPEx(BPHandle = 0x00000001)  returns 0x00 (0000ms, 0752ms total)
T3C78 000:960 JLINK_ReadReg(R0)  returns 0x00000000 (0000ms, 0752ms total)
T3C78 000:961 JLINK_WriteReg(R0, 0x08000000)  returns 0x00 (0000ms, 0752ms total)
T3C78 000:961 JLINK_WriteReg(R1, 0x00B71B00)  returns 0x00 (0000ms, 0752ms total)
T3C78 000:961 JLINK_WriteReg(R2, 0x00000001)  returns 0x00 (0000ms, 0752ms total)
T3C78 000:961 JLINK_WriteReg(R3, 0x00000000)  returns 0x00 (0000ms, 0752ms total)
T3C78 000:961 JLINK_WriteReg(R4, 0x00000000)  returns 0x00 (0000ms, 0752ms total)
T3C78 000:961 JLINK_WriteReg(R5, 0x00000000)  returns 0x00 (0000ms, 0752ms total)
T3C78 000:961 JLINK_WriteReg(R6, 0x00000000)  returns 0x00 (0000ms, 0752ms total)
T3C78 000:961 JLINK_WriteReg(R7, 0x00000000)  returns 0x00 (0000ms, 0752ms total)
T3C78 000:961 JLINK_WriteReg(R8, 0x00000000)  returns 0x00 (0000ms, 0752ms total)
T3C78 000:961 JLINK_WriteReg(R9, 0x20000160)  returns 0x00 (0000ms, 0752ms total)
T3C78 000:961 JLINK_WriteReg(R10, 0x00000000)  returns 0x00 (0000ms, 0752ms total)
T3C78 000:961 JLINK_WriteReg(R11, 0x00000000)  returns 0x00 (0000ms, 0752ms total)
T3C78 000:961 JLINK_WriteReg(R12, 0x00000000)  returns 0x00 (0000ms, 0752ms total)
T3C78 000:961 JLINK_WriteReg(R13 (SP), 0x20001000)  returns 0x00 (0000ms, 0752ms total)
T3C78 000:961 JLINK_WriteReg(R14, 0x20000001)  returns 0x00 (0000ms, 0752ms total)
T3C78 000:961 JLINK_WriteReg(R15 (PC), 0x2000007C)  returns 0x00 (0000ms, 0752ms total)
T3C78 000:961 JLINK_WriteReg(XPSR, 0x01000000)  returns 0x00 (0001ms, 0753ms total)
T3C78 000:962 JLINK_WriteReg(MSP, 0x20001000)  returns 0x00 (0000ms, 0753ms total)
T3C78 000:962 JLINK_WriteReg(PSP, 0x20001000)  returns 0x00 (0000ms, 0753ms total)
T3C78 000:962 JLINK_WriteReg(CFBP, 0x00000000)  returns 0x00 (0000ms, 0753ms total)
T3C78 000:962 JLINK_SetBPEx(Addr = 0x20000000, Type = 0xFFFFFFF2)  returns 0x00000002 (0000ms, 0753ms total)
T3C78 000:962 JLINK_Go() (0003ms, 0756ms total)
T3C78 000:965 JLINK_IsHalted()  returns FALSE (0001ms, 0757ms total)
T3C78 001:025 JLINK_IsHalted() -- CPU_ReadMem(2 bytes @ 0x20000000)  returns TRUE (0008ms, 0764ms total)
T3C78 001:033 JLINK_ReadReg(R15 (PC))  returns 0x20000000 (0000ms, 0756ms total)
T3C78 001:033 JLINK_ClrBPEx(BPHandle = 0x00000002)  returns 0x00 (0000ms, 0756ms total)
T3C78 001:033 JLINK_ReadReg(R0)  returns 0x00000000 (0000ms, 0756ms total)
T3C78 001:086 JLINK_WriteReg(R0, 0x00000001)  returns 0x00 (0000ms, 0756ms total)
T3C78 001:086 JLINK_WriteReg(R1, 0x00B71B00)  returns 0x00 (0000ms, 0756ms total)
T3C78 001:086 JLINK_WriteReg(R2, 0x00000001)  returns 0x00 (0000ms, 0756ms total)
T3C78 001:086 JLINK_WriteReg(R3, 0x00000000)  returns 0x00 (0000ms, 0756ms total)
T3C78 001:086 JLINK_WriteReg(R4, 0x00000000)  returns 0x00 (0000ms, 0756ms total)
T3C78 001:086 JLINK_WriteReg(R5, 0x00000000)  returns 0x00 (0000ms, 0756ms total)
T3C78 001:086 JLINK_WriteReg(R6, 0x00000000)  returns 0x00 (0000ms, 0756ms total)
T3C78 001:086 JLINK_WriteReg(R7, 0x00000000)  returns 0x00 (0000ms, 0756ms total)
T3C78 001:087 JLINK_WriteReg(R8, 0x00000000)  returns 0x00 (0000ms, 0757ms total)
T3C78 001:087 JLINK_WriteReg(R9, 0x20000160)  returns 0x00 (0000ms, 0757ms total)
T3C78 001:087 JLINK_WriteReg(R10, 0x00000000)  returns 0x00 (0000ms, 0757ms total)
T3C78 001:087 JLINK_WriteReg(R11, 0x00000000)  returns 0x00 (0000ms, 0757ms total)
T3C78 001:087 JLINK_WriteReg(R12, 0x00000000)  returns 0x00 (0000ms, 0757ms total)
T3C78 001:087 JLINK_WriteReg(R13 (SP), 0x20001000)  returns 0x00 (0000ms, 0757ms total)
T3C78 001:087 JLINK_WriteReg(R14, 0x20000001)  returns 0x00 (0000ms, 0757ms total)
T3C78 001:087 JLINK_WriteReg(R15 (PC), 0x2000006A)  returns 0x00 (0000ms, 0757ms total)
T3C78 001:087 JLINK_WriteReg(XPSR, 0x01000000)  returns 0x00 (0000ms, 0757ms total)
T3C78 001:087 JLINK_WriteReg(MSP, 0x20001000)  returns 0x00 (0000ms, 0757ms total)
T3C78 001:087 JLINK_WriteReg(PSP, 0x20001000)  returns 0x00 (0000ms, 0757ms total)
T3C78 001:087 JLINK_WriteReg(CFBP, 0x00000000)  returns 0x00 (0000ms, 0757ms total)
T3C78 001:087 JLINK_SetBPEx(Addr = 0x20000000, Type = 0xFFFFFFF2)  returns 0x00000003 (0000ms, 0757ms total)
T3C78 001:087 JLINK_Go() (0004ms, 0761ms total)
T3C78 001:091 JLINK_IsHalted() -- CPU_ReadMem(2 bytes @ 0x20000000)  returns TRUE (0006ms, 0767ms total)
T3C78 001:097 JLINK_ReadReg(R15 (PC))  returns 0x20000000 (0000ms, 0761ms total)
T3C78 001:097 JLINK_ClrBPEx(BPHandle = 0x00000003)  returns 0x00 (0000ms, 0761ms total)
T3C78 001:097 JLINK_ReadReg(R0)  returns 0x00000000 (0000ms, 0761ms total)
T3C78 001:102 JLINK_WriteMem(0x20000000, 0x0164 Bytes, ...) -- Data:  00 BE 0A E0 0D 78 2D 06 68 40 08 24 40 00 00 D3 ... -- CPU_WriteMem(356 bytes @ 0x20000000)  returns 0x164 (0005ms, 0766ms total)
T3C78 001:107 JLINK_WriteReg(R0, 0x08000000)  returns 0x00 (0000ms, 0766ms total)
T3C78 001:107 JLINK_WriteReg(R1, 0x00B71B00)  returns 0x00 (0001ms, 0767ms total)
T3C78 001:108 JLINK_WriteReg(R2, 0x00000002)  returns 0x00 (0000ms, 0767ms total)
T3C78 001:108 JLINK_WriteReg(R3, 0x00000000)  returns 0x00 (0000ms, 0767ms total)
T3C78 001:108 JLINK_WriteReg(R4, 0x00000000)  returns 0x00 (0000ms, 0767ms total)
T3C78 001:108 JLINK_WriteReg(R5, 0x00000000)  returns 0x00 (0000ms, 0767ms total)
T3C78 001:108 JLINK_WriteReg(R6, 0x00000000)  returns 0x00 (0000ms, 0767ms total)
T3C78 001:108 JLINK_WriteReg(R7, 0x00000000)  returns 0x00 (0000ms, 0767ms total)
T3C78 001:108 JLINK_WriteReg(R8, 0x00000000)  returns 0x00 (0000ms, 0767ms total)
T3C78 001:108 JLINK_WriteReg(R9, 0x20000160)  returns 0x00 (0000ms, 0767ms total)
T3C78 001:108 JLINK_WriteReg(R10, 0x00000000)  returns 0x00 (0000ms, 0767ms total)
T3C78 001:108 JLINK_WriteReg(R11, 0x00000000)  returns 0x00 (0000ms, 0767ms total)
T3C78 001:108 JLINK_WriteReg(R12, 0x00000000)  returns 0x00 (0000ms, 0767ms total)
T3C78 001:108 JLINK_WriteReg(R13 (SP), 0x20001000)  returns 0x00 (0000ms, 0767ms total)
T3C78 001:108 JLINK_WriteReg(R14, 0x20000001)  returns 0x00 (0000ms, 0767ms total)
T3C78 001:108 JLINK_WriteReg(R15 (PC), 0x20000038)  returns 0x00 (0000ms, 0767ms total)
T3C78 001:108 JLINK_WriteReg(XPSR, 0x01000000)  returns 0x00 (0000ms, 0767ms total)
T3C78 001:108 JLINK_WriteReg(MSP, 0x20001000)  returns 0x00 (0000ms, 0767ms total)
T3C78 001:108 JLINK_WriteReg(PSP, 0x20001000)  returns 0x00 (0000ms, 0767ms total)
T3C78 001:108 JLINK_WriteReg(CFBP, 0x00000000)  returns 0x00 (0000ms, 0767ms total)
T3C78 001:108 JLINK_SetBPEx(Addr = 0x20000000, Type = 0xFFFFFFF2) -- CPU_ReadMem(2 bytes @ 0x20000000)  returns 0x00000004 (0002ms, 0769ms total)
T3C78 001:110 JLINK_Go() -- CPU_WriteMem(2 bytes @ 0x20000000) (0006ms, 0775ms total)
T3C78 001:117 JLINK_IsHalted() -- CPU_ReadMem(2 bytes @ 0x20000000)  returns TRUE (0006ms, 0781ms total)
T3C78 001:123 JLINK_ReadReg(R15 (PC))  returns 0x20000000 (0000ms, 0775ms total)
T3C78 001:123 JLINK_ClrBPEx(BPHandle = 0x00000004)  returns 0x00 (0000ms, 0775ms total)
T3C78 001:123 JLINK_ReadReg(R0)  returns 0x00000000 (0000ms, 0775ms total)
T3C78 001:123 JLINK_WriteMem(0x20000164, 0x0400 Bytes, ...) -- Data:  08 25 00 20 45 01 00 08 3D 15 00 08 B1 08 00 08 ... -- CPU_WriteMem(1024 bytes @ 0x20000164)  returns 0x400 (0013ms, 0788ms total)
T3C78 001:136 JLINK_WriteReg(R0, 0x08000000)  returns 0x00 (0000ms, 0788ms total)
T3C78 001:136 JLINK_WriteReg(R1, 0x00000400)  returns 0x00 (0000ms, 0788ms total)
T3C78 001:136 JLINK_WriteReg(R2, 0x20000164)  returns 0x00 (0000ms, 0788ms total)
T3C78 001:136 JLINK_WriteReg(R3, 0x00000000)  returns 0x00 (0000ms, 0788ms total)
T3C78 001:136 JLINK_WriteReg(R4, 0x00000000)  returns 0x00 (0000ms, 0788ms total)
T3C78 001:136 JLINK_WriteReg(R5, 0x00000000)  returns 0x00 (0000ms, 0788ms total)
T3C78 001:136 JLINK_WriteReg(R6, 0x00000000)  returns 0x00 (0000ms, 0788ms total)
T3C78 001:136 JLINK_WriteReg(R7, 0x00000000)  returns 0x00 (0000ms, 0788ms total)
T3C78 001:136 JLINK_WriteReg(R8, 0x00000000)  returns 0x00 (0000ms, 0788ms total)
T3C78 001:136 JLINK_WriteReg(R9, 0x20000160)  returns 0x00 (0000ms, 0788ms total)
T3C78 001:136 JLINK_WriteReg(R10, 0x00000000)  returns 0x00 (0000ms, 0788ms total)
T3C78 001:136 JLINK_WriteReg(R11, 0x00000000)  returns 0x00 (0000ms, 0788ms total)
T3C78 001:136 JLINK_WriteReg(R12, 0x00000000)  returns 0x00 (0001ms, 0789ms total)
T3C78 001:137 JLINK_WriteReg(R13 (SP), 0x20001000)  returns 0x00 (0000ms, 0789ms total)
T3C78 001:137 JLINK_WriteReg(R14, 0x20000001)  returns 0x00 (0000ms, 0789ms total)
T3C78 001:137 JLINK_WriteReg(R15 (PC), 0x200000F4)  returns 0x00 (0000ms, 0789ms total)
T3C78 001:137 JLINK_WriteReg(XPSR, 0x01000000)  returns 0x00 (0000ms, 0789ms total)
T3C78 001:137 JLINK_WriteReg(MSP, 0x20001000)  returns 0x00 (0000ms, 0789ms total)
T3C78 001:137 JLINK_WriteReg(PSP, 0x20001000)  returns 0x00 (0000ms, 0789ms total)
T3C78 001:137 JLINK_WriteReg(CFBP, 0x00000000)  returns 0x00 (0000ms, 0789ms total)
T3C78 001:137 JLINK_SetBPEx(Addr = 0x20000000, Type = 0xFFFFFFF2)  returns 0x00000005 (0000ms, 0789ms total)
T3C78 001:137 JLINK_Go() (0003ms, 0792ms total)
T3C78 001:140 JLINK_IsHalted()  returns FALSE (0002ms, 0794ms total)
T3C78 001:169 JLINK_IsHalted()  returns FALSE (0001ms, 0793ms total)
T3C78 001:171 JLINK_IsHalted() -- CPU_ReadMem(2 bytes @ 0x20000000)  returns TRUE (0007ms, 0799ms total)
T3C78 001:178 JLINK_ReadReg(R15 (PC))  returns 0x20000000 (0000ms, 0792ms total)
T3C78 001:178 JLINK_ClrBPEx(BPHandle = 0x00000005)  returns 0x00 (0000ms, 0792ms total)
T3C78 001:178 JLINK_ReadReg(R0)  returns 0x00000000 (0000ms, 0792ms total)
T3C78 001:178 JLINK_WriteMem(0x20000164, 0x0400 Bytes, ...) -- Data:  25 73 00 00 10 B5 88 B0 16 48 00 F0 C1 FF 4F F6 ... -- CPU_WriteMem(1024 bytes @ 0x20000164)  returns 0x400 (0014ms, 0806ms total)
T3C78 001:192 JLINK_WriteReg(R0, 0x08000400)  returns 0x00 (0000ms, 0806ms total)
T3C78 001:192 JLINK_WriteReg(R1, 0x00000400)  returns 0x00 (0000ms, 0806ms total)
T3C78 001:192 JLINK_WriteReg(R2, 0x20000164)  returns 0x00 (0000ms, 0806ms total)
T3C78 001:193 JLINK_WriteReg(R3, 0x00000000)  returns 0x00 (0000ms, 0806ms total)
T3C78 001:193 JLINK_WriteReg(R4, 0x00000000)  returns 0x00 (0000ms, 0806ms total)
T3C78 001:193 JLINK_WriteReg(R5, 0x00000000)  returns 0x00 (0000ms, 0806ms total)
T3C78 001:193 JLINK_WriteReg(R6, 0x00000000)  returns 0x00 (0000ms, 0806ms total)
T3C78 001:193 JLINK_WriteReg(R7, 0x00000000)  returns 0x00 (0000ms, 0806ms total)
T3C78 001:193 JLINK_WriteReg(R8, 0x00000000)  returns 0x00 (0000ms, 0806ms total)
T3C78 001:193 JLINK_WriteReg(R9, 0x20000160)  returns 0x00 (0000ms, 0806ms total)
T3C78 001:193 JLINK_WriteReg(R10, 0x00000000)  returns 0x00 (0000ms, 0806ms total)
T3C78 001:193 JLINK_WriteReg(R11, 0x00000000)  returns 0x00 (0000ms, 0806ms total)
T3C78 001:193 JLINK_WriteReg(R12, 0x00000000)  returns 0x00 (0000ms, 0806ms total)
T3C78 001:193 JLINK_WriteReg(R13 (SP), 0x20001000)  returns 0x00 (0000ms, 0806ms total)
T3C78 001:193 JLINK_WriteReg(R14, 0x20000001)  returns 0x00 (0000ms, 0806ms total)
T3C78 001:193 JLINK_WriteReg(R15 (PC), 0x200000F4)  returns 0x00 (0000ms, 0806ms total)
T3C78 001:193 JLINK_WriteReg(XPSR, 0x01000000)  returns 0x00 (0000ms, 0806ms total)
T3C78 001:193 JLINK_WriteReg(MSP, 0x20001000)  returns 0x00 (0000ms, 0806ms total)
T3C78 001:193 JLINK_WriteReg(PSP, 0x20001000)  returns 0x00 (0000ms, 0806ms total)
T3C78 001:193 JLINK_WriteReg(CFBP, 0x00000000)  returns 0x00 (0000ms, 0806ms total)
T3C78 001:193 JLINK_SetBPEx(Addr = 0x20000000, Type = 0xFFFFFFF2)  returns 0x00000006 (0000ms, 0806ms total)
T3C78 001:193 JLINK_Go() (0005ms, 0811ms total)
T3C78 001:198 JLINK_IsHalted()  returns FALSE (0002ms, 0813ms total)
T3C78 001:204 JLINK_IsHalted()  returns FALSE (0001ms, 0812ms total)
T3C78 001:212 JLINK_IsHalted()  returns FALSE (0002ms, 0813ms total)
T3C78 001:215 JLINK_IsHalted()  returns FALSE (0001ms, 0812ms total)
T3C78 001:217 JLINK_IsHalted()  returns FALSE (0002ms, 0813ms total)
T3C78 001:225 JLINK_IsHalted()  returns FALSE (0002ms, 0813ms total)
T3C78 001:228 JLINK_IsHalted() -- CPU_ReadMem(2 bytes @ 0x20000000)  returns TRUE (0006ms, 0817ms total)
T3C78 001:234 JLINK_ReadReg(R15 (PC))  returns 0x20000000 (0000ms, 0811ms total)
T3C78 001:234 JLINK_ClrBPEx(BPHandle = 0x00000006)  returns 0x00 (0000ms, 0811ms total)
T3C78 001:234 JLINK_ReadReg(R0)  returns 0x00000000 (0000ms, 0811ms total)
T3C78 001:237 JLINK_WriteMem(0x20000164, 0x0400 Bytes, ...) -- Data:  88 68 42 6C 00 23 88 68 40 6C 08 B9 00 20 10 BD ... -- CPU_WriteMem(1024 bytes @ 0x20000164)  returns 0x400 (0013ms, 0824ms total)
T3C78 001:250 JLINK_WriteReg(R0, 0x08000800)  returns 0x00 (0000ms, 0824ms total)
T3C78 001:250 JLINK_WriteReg(R1, 0x00000400)  returns 0x00 (0000ms, 0824ms total)
T3C78 001:250 JLINK_WriteReg(R2, 0x20000164)  returns 0x00 (0000ms, 0824ms total)
T3C78 001:250 JLINK_WriteReg(R3, 0x00000000)  returns 0x00 (0000ms, 0824ms total)
T3C78 001:250 JLINK_WriteReg(R4, 0x00000000)  returns 0x00 (0000ms, 0824ms total)
T3C78 001:250 JLINK_WriteReg(R5, 0x00000000)  returns 0x00 (0000ms, 0824ms total)
T3C78 001:250 JLINK_WriteReg(R6, 0x00000000)  returns 0x00 (0000ms, 0824ms total)
T3C78 001:250 JLINK_WriteReg(R7, 0x00000000)  returns 0x00 (0000ms, 0824ms total)
T3C78 001:250 JLINK_WriteReg(R8, 0x00000000)  returns 0x00 (0000ms, 0824ms total)
T3C78 001:250 JLINK_WriteReg(R9, 0x20000160)  returns 0x00 (0000ms, 0824ms total)
T3C78 001:250 JLINK_WriteReg(R10, 0x00000000)  returns 0x00 (0001ms, 0825ms total)
T3C78 001:251 JLINK_WriteReg(R11, 0x00000000)  returns 0x00 (0000ms, 0825ms total)
T3C78 001:251 JLINK_WriteReg(R12, 0x00000000)  returns 0x00 (0000ms, 0825ms total)
T3C78 001:251 JLINK_WriteReg(R13 (SP), 0x20001000)  returns 0x00 (0000ms, 0825ms total)
T3C78 001:251 JLINK_WriteReg(R14, 0x20000001)  returns 0x00 (0000ms, 0825ms total)
T3C78 001:251 JLINK_WriteReg(R15 (PC), 0x200000F4)  returns 0x00 (0000ms, 0825ms total)
T3C78 001:251 JLINK_WriteReg(XPSR, 0x01000000)  returns 0x00 (0000ms, 0825ms total)
T3C78 001:251 JLINK_WriteReg(MSP, 0x20001000)  returns 0x00 (0000ms, 0825ms total)
T3C78 001:251 JLINK_WriteReg(PSP, 0x20001000)  returns 0x00 (0000ms, 0825ms total)
T3C78 001:251 JLINK_WriteReg(CFBP, 0x00000000)  returns 0x00 (0000ms, 0825ms total)
T3C78 001:251 JLINK_SetBPEx(Addr = 0x20000000, Type = 0xFFFFFFF2)  returns 0x00000007 (0000ms, 0825ms total)
T3C78 001:251 JLINK_Go() (0004ms, 0829ms total)
T3C78 001:255 JLINK_IsHalted()  returns FALSE (0002ms, 0831ms total)
T3C78 001:281 JLINK_IsHalted()  returns FALSE (0001ms, 0830ms total)
T3C78 001:287 JLINK_IsHalted() -- CPU_ReadMem(2 bytes @ 0x20000000)  returns TRUE (0006ms, 0835ms total)
T3C78 001:293 JLINK_ReadReg(R15 (PC))  returns 0x20000000 (0000ms, 0829ms total)
T3C78 001:293 JLINK_ClrBPEx(BPHandle = 0x00000007)  returns 0x00 (0000ms, 0829ms total)
T3C78 001:293 JLINK_ReadReg(R0)  returns 0x00000000 (0000ms, 0829ms total)
T3C78 001:294 JLINK_WriteMem(0x20000164, 0x0400 Bytes, ...) -- Data:  80 20 AD F8 00 00 69 46 07 48 FF F7 03 FD 04 20 ... -- CPU_WriteMem(1024 bytes @ 0x20000164)  returns 0x400 (0013ms, 0842ms total)
T3C78 001:307 JLINK_WriteReg(R0, 0x08000C00)  returns 0x00 (0000ms, 0842ms total)
T3C78 001:307 JLINK_WriteReg(R1, 0x00000400)  returns 0x00 (0000ms, 0842ms total)
T3C78 001:307 JLINK_WriteReg(R2, 0x20000164)  returns 0x00 (0000ms, 0842ms total)
T3C78 001:307 JLINK_WriteReg(R3, 0x00000000)  returns 0x00 (0000ms, 0842ms total)
T3C78 001:307 JLINK_WriteReg(R4, 0x00000000)  returns 0x00 (0000ms, 0842ms total)
T3C78 001:307 JLINK_WriteReg(R5, 0x00000000)  returns 0x00 (0000ms, 0842ms total)
T3C78 001:307 JLINK_WriteReg(R6, 0x00000000)  returns 0x00 (0000ms, 0842ms total)
T3C78 001:307 JLINK_WriteReg(R7, 0x00000000)  returns 0x00 (0000ms, 0842ms total)
T3C78 001:307 JLINK_WriteReg(R8, 0x00000000)  returns 0x00 (0000ms, 0842ms total)
T3C78 001:307 JLINK_WriteReg(R9, 0x20000160)  returns 0x00 (0000ms, 0842ms total)
T3C78 001:307 JLINK_WriteReg(R10, 0x00000000)  returns 0x00 (0000ms, 0842ms total)
T3C78 001:307 JLINK_WriteReg(R11, 0x00000000)  returns 0x00 (0000ms, 0842ms total)
T3C78 001:307 JLINK_WriteReg(R12, 0x00000000)  returns 0x00 (0000ms, 0842ms total)
T3C78 001:307 JLINK_WriteReg(R13 (SP), 0x20001000)  returns 0x00 (0000ms, 0842ms total)
T3C78 001:307 JLINK_WriteReg(R14, 0x20000001)  returns 0x00 (0000ms, 0842ms total)
T3C78 001:307 JLINK_WriteReg(R15 (PC), 0x200000F4)  returns 0x00 (0000ms, 0842ms total)
T3C78 001:307 JLINK_WriteReg(XPSR, 0x01000000)  returns 0x00 (0000ms, 0842ms total)
T3C78 001:307 JLINK_WriteReg(MSP, 0x20001000)  returns 0x00 (0000ms, 0842ms total)
T3C78 001:307 JLINK_WriteReg(PSP, 0x20001000)  returns 0x00 (0000ms, 0842ms total)
T3C78 001:307 JLINK_WriteReg(CFBP, 0x00000000)  returns 0x00 (0001ms, 0843ms total)
T3C78 001:308 JLINK_SetBPEx(Addr = 0x20000000, Type = 0xFFFFFFF2)  returns 0x00000008 (0000ms, 0843ms total)
T3C78 001:308 JLINK_Go() (0004ms, 0847ms total)
T3C78 001:312 JLINK_IsHalted()  returns FALSE (0002ms, 0849ms total)
T3C78 001:322 JLINK_IsHalted()  returns FALSE (0002ms, 0849ms total)
T3C78 001:325 JLINK_IsHalted()  returns FALSE (0001ms, 0848ms total)
T3C78 001:328 JLINK_IsHalted()  returns FALSE (0002ms, 0849ms total)
T3C78 001:335 JLINK_IsHalted()  returns FALSE (0002ms, 0849ms total)
T3C78 001:338 JLINK_IsHalted()  returns FALSE (0002ms, 0849ms total)
T3C78 001:341 JLINK_IsHalted()  returns FALSE (0001ms, 0848ms total)
T3C78 001:343 JLINK_IsHalted() -- CPU_ReadMem(2 bytes @ 0x20000000)  returns TRUE (0007ms, 0854ms total)
T3C78 001:350 JLINK_ReadReg(R15 (PC))  returns 0x20000000 (0000ms, 0847ms total)
T3C78 001:350 JLINK_ClrBPEx(BPHandle = 0x00000008)  returns 0x00 (0000ms, 0847ms total)
T3C78 001:350 JLINK_ReadReg(R0)  returns 0x00000000 (0000ms, 0847ms total)
T3C78 001:351 JLINK_WriteMem(0x20000164, 0x0400 Bytes, ...) -- Data:  FF F7 34 FD 4F F6 FF 70 FF F7 30 FD 29 20 00 F0 ... -- CPU_WriteMem(1024 bytes @ 0x20000164)  returns 0x400 (0013ms, 0860ms total)
T3C78 001:364 JLINK_WriteReg(R0, 0x08001000)  returns 0x00 (0000ms, 0860ms total)
T3C78 001:364 JLINK_WriteReg(R1, 0x00000400)  returns 0x00 (0000ms, 0860ms total)
T3C78 001:364 JLINK_WriteReg(R2, 0x20000164)  returns 0x00 (0000ms, 0860ms total)
T3C78 001:364 JLINK_WriteReg(R3, 0x00000000)  returns 0x00 (0000ms, 0860ms total)
T3C78 001:364 JLINK_WriteReg(R4, 0x00000000)  returns 0x00 (0000ms, 0860ms total)
T3C78 001:364 JLINK_WriteReg(R5, 0x00000000)  returns 0x00 (0000ms, 0860ms total)
T3C78 001:364 JLINK_WriteReg(R6, 0x00000000)  returns 0x00 (0000ms, 0860ms total)
T3C78 001:364 JLINK_WriteReg(R7, 0x00000000)  returns 0x00 (0000ms, 0860ms total)
T3C78 001:364 JLINK_WriteReg(R8, 0x00000000)  returns 0x00 (0000ms, 0860ms total)
T3C78 001:364 JLINK_WriteReg(R9, 0x20000160)  returns 0x00 (0000ms, 0860ms total)
T3C78 001:364 JLINK_WriteReg(R10, 0x00000000)  returns 0x00 (0000ms, 0860ms total)
T3C78 001:364 JLINK_WriteReg(R11, 0x00000000)  returns 0x00 (0000ms, 0860ms total)
T3C78 001:364 JLINK_WriteReg(R12, 0x00000000)  returns 0x00 (0000ms, 0860ms total)
T3C78 001:364 JLINK_WriteReg(R13 (SP), 0x20001000)  returns 0x00 (0000ms, 0860ms total)
T3C78 001:364 JLINK_WriteReg(R14, 0x20000001)  returns 0x00 (0001ms, 0861ms total)
T3C78 001:365 JLINK_WriteReg(R15 (PC), 0x200000F4)  returns 0x00 (0000ms, 0861ms total)
T3C78 001:365 JLINK_WriteReg(XPSR, 0x01000000)  returns 0x00 (0000ms, 0861ms total)
T3C78 001:365 JLINK_WriteReg(MSP, 0x20001000)  returns 0x00 (0000ms, 0861ms total)
T3C78 001:365 JLINK_WriteReg(PSP, 0x20001000)  returns 0x00 (0000ms, 0861ms total)
T3C78 001:365 JLINK_WriteReg(CFBP, 0x00000000)  returns 0x00 (0000ms, 0861ms total)
T3C78 001:365 JLINK_SetBPEx(Addr = 0x20000000, Type = 0xFFFFFFF2)  returns 0x00000009 (0000ms, 0861ms total)
T3C78 001:365 JLINK_Go() (0003ms, 0864ms total)
T3C78 001:369 JLINK_IsHalted()  returns FALSE (0002ms, 0867ms total)
T3C78 001:398 JLINK_IsHalted() -- CPU_ReadMem(2 bytes @ 0x20000000)  returns TRUE (0006ms, 0871ms total)
T3C78 001:404 JLINK_ReadReg(R15 (PC))  returns 0x20000000 (0000ms, 0865ms total)
T3C78 001:404 JLINK_ClrBPEx(BPHandle = 0x00000009)  returns 0x00 (0000ms, 0865ms total)
T3C78 001:404 JLINK_ReadReg(R0)  returns 0x00000000 (0000ms, 0865ms total)
T3C78 001:404 JLINK_WriteMem(0x20000164, 0x0400 Bytes, ...) -- Data:  8D F8 02 00 10 20 8D F8 03 00 69 46 05 48 FF F7 ... -- CPU_WriteMem(1024 bytes @ 0x20000164)  returns 0x400 (0013ms, 0878ms total)
T3C78 001:417 JLINK_WriteReg(R0, 0x08001400)  returns 0x00 (0000ms, 0878ms total)
T3C78 001:417 JLINK_WriteReg(R1, 0x00000400)  returns 0x00 (0000ms, 0878ms total)
T3C78 001:417 JLINK_WriteReg(R2, 0x20000164)  returns 0x00 (0000ms, 0878ms total)
T3C78 001:417 JLINK_WriteReg(R3, 0x00000000)  returns 0x00 (0000ms, 0878ms total)
T3C78 001:417 JLINK_WriteReg(R4, 0x00000000)  returns 0x00 (0000ms, 0878ms total)
T3C78 001:417 JLINK_WriteReg(R5, 0x00000000)  returns 0x00 (0000ms, 0878ms total)
T3C78 001:417 JLINK_WriteReg(R6, 0x00000000)  returns 0x00 (0000ms, 0878ms total)
T3C78 001:417 JLINK_WriteReg(R7, 0x00000000)  returns 0x00 (0001ms, 0879ms total)
T3C78 001:418 JLINK_WriteReg(R8, 0x00000000)  returns 0x00 (0000ms, 0879ms total)
T3C78 001:418 JLINK_WriteReg(R9, 0x20000160)  returns 0x00 (0000ms, 0879ms total)
T3C78 001:418 JLINK_WriteReg(R10, 0x00000000)  returns 0x00 (0000ms, 0879ms total)
T3C78 001:418 JLINK_WriteReg(R11, 0x00000000)  returns 0x00 (0000ms, 0879ms total)
T3C78 001:418 JLINK_WriteReg(R12, 0x00000000)  returns 0x00 (0000ms, 0879ms total)
T3C78 001:418 JLINK_WriteReg(R13 (SP), 0x20001000)  returns 0x00 (0000ms, 0879ms total)
T3C78 001:418 JLINK_WriteReg(R14, 0x20000001)  returns 0x00 (0000ms, 0879ms total)
T3C78 001:418 JLINK_WriteReg(R15 (PC), 0x200000F4)  returns 0x00 (0000ms, 0879ms total)
T3C78 001:418 JLINK_WriteReg(XPSR, 0x01000000)  returns 0x00 (0000ms, 0879ms total)
T3C78 001:418 JLINK_WriteReg(MSP, 0x20001000)  returns 0x00 (0000ms, 0879ms total)
T3C78 001:418 JLINK_WriteReg(PSP, 0x20001000)  returns 0x00 (0000ms, 0879ms total)
T3C78 001:418 JLINK_WriteReg(CFBP, 0x00000000)  returns 0x00 (0000ms, 0879ms total)
T3C78 001:418 JLINK_SetBPEx(Addr = 0x20000000, Type = 0xFFFFFFF2)  returns 0x0000000A (0000ms, 0879ms total)
T3C78 001:418 JLINK_Go() (0004ms, 0883ms total)
T3C78 001:422 JLINK_IsHalted()  returns FALSE (0002ms, 0885ms total)
T3C78 001:428 JLINK_IsHalted()  returns FALSE (0001ms, 0884ms total)
T3C78 001:430 JLINK_IsHalted()  returns FALSE (0001ms, 0884ms total)
T3C78 001:432 JLINK_IsHalted()  returns FALSE (0001ms, 0884ms total)
T3C78 001:434 JLINK_IsHalted()  returns FALSE (0001ms, 0884ms total)
T3C78 001:436 JLINK_IsHalted()  returns FALSE (0000ms, 0883ms total)
T3C78 001:437 JLINK_IsHalted()  returns FALSE (0001ms, 0884ms total)
T3C78 001:439 JLINK_IsHalted()  returns FALSE (0001ms, 0884ms total)
T3C78 001:441 JLINK_IsHalted()  returns FALSE (0001ms, 0884ms total)
T3C78 001:447 JLINK_IsHalted()  returns FALSE (0001ms, 0884ms total)
T3C78 001:449 JLINK_IsHalted()  returns FALSE (0001ms, 0884ms total)
T3C78 001:451 JLINK_IsHalted()  returns FALSE (0000ms, 0883ms total)
T3C78 001:452 JLINK_IsHalted() -- CPU_ReadMem(2 bytes @ 0x20000000)  returns TRUE (0006ms, 0889ms total)
T3C78 001:458 JLINK_ReadReg(R15 (PC))  returns 0x20000000 (0000ms, 0883ms total)
T3C78 001:458 JLINK_ClrBPEx(BPHandle = 0x0000000A)  returns 0x00 (0000ms, 0883ms total)
T3C78 001:458 JLINK_ReadReg(R0)  returns 0x00000000 (0000ms, 0883ms total)
T3C78 001:458 JLINK_WriteMem(0x20000164, 0x0400 Bytes, ...) -- Data:  92 69 02 43 04 4B 9A 61 04 E0 03 4A 92 69 82 43 ... -- CPU_WriteMem(1024 bytes @ 0x20000164)  returns 0x400 (0013ms, 0896ms total)
T3C78 001:471 JLINK_WriteReg(R0, 0x08001800)  returns 0x00 (0000ms, 0896ms total)
T3C78 001:471 JLINK_WriteReg(R1, 0x00000400)  returns 0x00 (0000ms, 0896ms total)
T3C78 001:471 JLINK_WriteReg(R2, 0x20000164)  returns 0x00 (0000ms, 0896ms total)
T3C78 001:471 JLINK_WriteReg(R3, 0x00000000)  returns 0x00 (0000ms, 0896ms total)
T3C78 001:471 JLINK_WriteReg(R4, 0x00000000)  returns 0x00 (0000ms, 0896ms total)
T3C78 001:471 JLINK_WriteReg(R5, 0x00000000)  returns 0x00 (0000ms, 0896ms total)
T3C78 001:471 JLINK_WriteReg(R6, 0x00000000)  returns 0x00 (0000ms, 0896ms total)
T3C78 001:471 JLINK_WriteReg(R7, 0x00000000)  returns 0x00 (0000ms, 0896ms total)
T3C78 001:472 JLINK_WriteReg(R8, 0x00000000)  returns 0x00 (0000ms, 0896ms total)
T3C78 001:472 JLINK_WriteReg(R9, 0x20000160)  returns 0x00 (0000ms, 0896ms total)
T3C78 001:472 JLINK_WriteReg(R10, 0x00000000)  returns 0x00 (0000ms, 0896ms total)
T3C78 001:472 JLINK_WriteReg(R11, 0x00000000)  returns 0x00 (0000ms, 0896ms total)
T3C78 001:472 JLINK_WriteReg(R12, 0x00000000)  returns 0x00 (0000ms, 0896ms total)
T3C78 001:472 JLINK_WriteReg(R13 (SP), 0x20001000)  returns 0x00 (0000ms, 0896ms total)
T3C78 001:472 JLINK_WriteReg(R14, 0x20000001)  returns 0x00 (0000ms, 0896ms total)
T3C78 001:472 JLINK_WriteReg(R15 (PC), 0x200000F4)  returns 0x00 (0000ms, 0896ms total)
T3C78 001:472 JLINK_WriteReg(XPSR, 0x01000000)  returns 0x00 (0000ms, 0896ms total)
T3C78 001:472 JLINK_WriteReg(MSP, 0x20001000)  returns 0x00 (0000ms, 0896ms total)
T3C78 001:472 JLINK_WriteReg(PSP, 0x20001000)  returns 0x00 (0000ms, 0896ms total)
T3C78 001:472 JLINK_WriteReg(CFBP, 0x00000000)  returns 0x00 (0000ms, 0896ms total)
T3C78 001:472 JLINK_SetBPEx(Addr = 0x20000000, Type = 0xFFFFFFF2)  returns 0x0000000B (0000ms, 0896ms total)
T3C78 001:472 JLINK_Go() (0004ms, 0900ms total)
T3C78 001:476 JLINK_IsHalted()  returns FALSE (0001ms, 0901ms total)
T3C78 001:499 JLINK_IsHalted()  returns FALSE (0001ms, 0901ms total)
T3C78 001:503 JLINK_IsHalted()  returns FALSE (0001ms, 0901ms total)
T3C78 001:511 JLINK_IsHalted() -- CPU_ReadMem(2 bytes @ 0x20000000)  returns TRUE (0006ms, 0906ms total)
T3C78 001:517 JLINK_ReadReg(R15 (PC))  returns 0x20000000 (0000ms, 0900ms total)
T3C78 001:517 JLINK_ClrBPEx(BPHandle = 0x0000000B)  returns 0x00 (0000ms, 0900ms total)
T3C78 001:517 JLINK_ReadReg(R0)  returns 0x00000000 (0000ms, 0900ms total)
T3C78 001:518 JLINK_WriteMem(0x20000164, 0x0400 Bytes, ...) -- Data:  0C BD 00 00 00 10 02 40 00 20 02 40 70 B5 04 46 ... -- CPU_WriteMem(1024 bytes @ 0x20000164)  returns 0x400 (0013ms, 0913ms total)
T3C78 001:531 JLINK_WriteReg(R0, 0x08001C00)  returns 0x00 (0000ms, 0913ms total)
T3C78 001:531 JLINK_WriteReg(R1, 0x00000400)  returns 0x00 (0000ms, 0913ms total)
T3C78 001:531 JLINK_WriteReg(R2, 0x20000164)  returns 0x00 (0000ms, 0913ms total)
T3C78 001:531 JLINK_WriteReg(R3, 0x00000000)  returns 0x00 (0000ms, 0913ms total)
T3C78 001:531 JLINK_WriteReg(R4, 0x00000000)  returns 0x00 (0000ms, 0913ms total)
T3C78 001:531 JLINK_WriteReg(R5, 0x00000000)  returns 0x00 (0000ms, 0913ms total)
T3C78 001:531 JLINK_WriteReg(R6, 0x00000000)  returns 0x00 (0000ms, 0913ms total)
T3C78 001:531 JLINK_WriteReg(R7, 0x00000000)  returns 0x00 (0000ms, 0913ms total)
T3C78 001:531 JLINK_WriteReg(R8, 0x00000000)  returns 0x00 (0000ms, 0913ms total)
T3C78 001:531 JLINK_WriteReg(R9, 0x20000160)  returns 0x00 (0000ms, 0913ms total)
T3C78 001:531 JLINK_WriteReg(R10, 0x00000000)  returns 0x00 (0000ms, 0913ms total)
T3C78 001:531 JLINK_WriteReg(R11, 0x00000000)  returns 0x00 (0000ms, 0913ms total)
T3C78 001:531 JLINK_WriteReg(R12, 0x00000000)  returns 0x00 (0000ms, 0913ms total)
T3C78 001:531 JLINK_WriteReg(R13 (SP), 0x20001000)  returns 0x00 (0000ms, 0913ms total)
T3C78 001:531 JLINK_WriteReg(R14, 0x20000001)  returns 0x00 (0000ms, 0913ms total)
T3C78 001:531 JLINK_WriteReg(R15 (PC), 0x200000F4)  returns 0x00 (0000ms, 0913ms total)
T3C78 001:531 JLINK_WriteReg(XPSR, 0x01000000)  returns 0x00 (0000ms, 0913ms total)
T3C78 001:531 JLINK_WriteReg(MSP, 0x20001000)  returns 0x00 (0000ms, 0913ms total)
T3C78 001:531 JLINK_WriteReg(PSP, 0x20001000)  returns 0x00 (0001ms, 0914ms total)
T3C78 001:532 JLINK_WriteReg(CFBP, 0x00000000)  returns 0x00 (0000ms, 0914ms total)
T3C78 001:532 JLINK_SetBPEx(Addr = 0x20000000, Type = 0xFFFFFFF2)  returns 0x0000000C (0000ms, 0914ms total)
T3C78 001:532 JLINK_Go() (0003ms, 0917ms total)
T3C78 001:536 JLINK_IsHalted()  returns FALSE (0001ms, 0918ms total)
T3C78 001:542 JLINK_IsHalted()  returns FALSE (0002ms, 0919ms total)
T3C78 001:545 JLINK_IsHalted()  returns FALSE (0002ms, 0919ms total)
T3C78 001:553 JLINK_IsHalted()  returns FALSE (0002ms, 0919ms total)
T3C78 001:557 JLINK_IsHalted()  returns FALSE (0001ms, 0918ms total)
T3C78 001:559 JLINK_IsHalted()  returns FALSE (0002ms, 0919ms total)
T3C78 001:567 JLINK_IsHalted() -- CPU_ReadMem(2 bytes @ 0x20000000)  returns TRUE (0007ms, 0924ms total)
T3C78 001:574 JLINK_ReadReg(R15 (PC))  returns 0x20000000 (0000ms, 0917ms total)
T3C78 001:574 JLINK_ClrBPEx(BPHandle = 0x0000000C)  returns 0x00 (0000ms, 0917ms total)
T3C78 001:574 JLINK_ReadReg(R0)  returns 0x00000000 (0000ms, 0917ms total)
T3C78 001:575 JLINK_WriteMem(0x20000164, 0x0400 Bytes, ...) -- Data:  6F 64 73 20 69 6E 20 53 68 6F 70 43 61 72 74 21 ... -- CPU_WriteMem(1024 bytes @ 0x20000164)  returns 0x400 (0013ms, 0930ms total)
T3C78 001:588 JLINK_WriteReg(R0, 0x08002000)  returns 0x00 (0000ms, 0930ms total)
T3C78 001:588 JLINK_WriteReg(R1, 0x00000400)  returns 0x00 (0000ms, 0930ms total)
T3C78 001:588 JLINK_WriteReg(R2, 0x20000164)  returns 0x00 (0000ms, 0930ms total)
T3C78 001:588 JLINK_WriteReg(R3, 0x00000000)  returns 0x00 (0000ms, 0930ms total)
T3C78 001:588 JLINK_WriteReg(R4, 0x00000000)  returns 0x00 (0000ms, 0930ms total)
T3C78 001:588 JLINK_WriteReg(R5, 0x00000000)  returns 0x00 (0000ms, 0930ms total)
T3C78 001:588 JLINK_WriteReg(R6, 0x00000000)  returns 0x00 (0000ms, 0930ms total)
T3C78 001:588 JLINK_WriteReg(R7, 0x00000000)  returns 0x00 (0000ms, 0930ms total)
T3C78 001:588 JLINK_WriteReg(R8, 0x00000000)  returns 0x00 (0000ms, 0930ms total)
T3C78 001:588 JLINK_WriteReg(R9, 0x20000160)  returns 0x00 (0000ms, 0930ms total)
T3C78 001:588 JLINK_WriteReg(R10, 0x00000000)  returns 0x00 (0000ms, 0930ms total)
T3C78 001:588 JLINK_WriteReg(R11, 0x00000000)  returns 0x00 (0001ms, 0931ms total)
T3C78 001:589 JLINK_WriteReg(R12, 0x00000000)  returns 0x00 (0000ms, 0931ms total)
T3C78 001:589 JLINK_WriteReg(R13 (SP), 0x20001000)  returns 0x00 (0000ms, 0931ms total)
T3C78 001:589 JLINK_WriteReg(R14, 0x20000001)  returns 0x00 (0000ms, 0931ms total)
T3C78 001:589 JLINK_WriteReg(R15 (PC), 0x200000F4)  returns 0x00 (0000ms, 0931ms total)
T3C78 001:589 JLINK_WriteReg(XPSR, 0x01000000)  returns 0x00 (0000ms, 0931ms total)
T3C78 001:589 JLINK_WriteReg(MSP, 0x20001000)  returns 0x00 (0000ms, 0931ms total)
T3C78 001:589 JLINK_WriteReg(PSP, 0x20001000)  returns 0x00 (0000ms, 0931ms total)
T3C78 001:589 JLINK_WriteReg(CFBP, 0x00000000)  returns 0x00 (0000ms, 0931ms total)
T3C78 001:589 JLINK_SetBPEx(Addr = 0x20000000, Type = 0xFFFFFFF2)  returns 0x0000000D (0000ms, 0931ms total)
T3C78 001:589 JLINK_Go() (0004ms, 0935ms total)
T3C78 001:593 JLINK_IsHalted()  returns FALSE (0002ms, 0937ms total)
T3C78 001:615 JLINK_IsHalted()  returns FALSE (0002ms, 0937ms total)
T3C78 001:618 JLINK_IsHalted()  returns FALSE (0002ms, 0937ms total)
T3C78 001:621 JLINK_IsHalted()  returns FALSE (0002ms, 0937ms total)
T3C78 001:624 JLINK_IsHalted() -- CPU_ReadMem(2 bytes @ 0x20000000)  returns TRUE (0006ms, 0941ms total)
T3C78 001:630 JLINK_ReadReg(R15 (PC))  returns 0x20000000 (0000ms, 0935ms total)
T3C78 001:630 JLINK_ClrBPEx(BPHandle = 0x0000000D)  returns 0x00 (0000ms, 0935ms total)
T3C78 001:630 JLINK_ReadReg(R0)  returns 0x00000000 (0000ms, 0935ms total)
T3C78 001:630 JLINK_WriteMem(0x20000164, 0x0400 Bytes, ...) -- Data:  13 88 0B 40 0B B1 01 20 00 E0 00 20 70 47 70 B5 ... -- CPU_WriteMem(1024 bytes @ 0x20000164)  returns 0x400 (0013ms, 0948ms total)
T3C78 001:643 JLINK_WriteReg(R0, 0x08002400)  returns 0x00 (0000ms, 0948ms total)
T3C78 001:643 JLINK_WriteReg(R1, 0x00000400)  returns 0x00 (0000ms, 0948ms total)
T3C78 001:643 JLINK_WriteReg(R2, 0x20000164)  returns 0x00 (0000ms, 0948ms total)
T3C78 001:643 JLINK_WriteReg(R3, 0x00000000)  returns 0x00 (0000ms, 0948ms total)
T3C78 001:643 JLINK_WriteReg(R4, 0x00000000)  returns 0x00 (0000ms, 0948ms total)
T3C78 001:643 JLINK_WriteReg(R5, 0x00000000)  returns 0x00 (0001ms, 0949ms total)
T3C78 001:644 JLINK_WriteReg(R6, 0x00000000)  returns 0x00 (0000ms, 0949ms total)
T3C78 001:644 JLINK_WriteReg(R7, 0x00000000)  returns 0x00 (0000ms, 0949ms total)
T3C78 001:644 JLINK_WriteReg(R8, 0x00000000)  returns 0x00 (0000ms, 0949ms total)
T3C78 001:644 JLINK_WriteReg(R9, 0x20000160)  returns 0x00 (0000ms, 0949ms total)
T3C78 001:644 JLINK_WriteReg(R10, 0x00000000)  returns 0x00 (0000ms, 0949ms total)
T3C78 001:644 JLINK_WriteReg(R11, 0x00000000)  returns 0x00 (0000ms, 0949ms total)
T3C78 001:644 JLINK_WriteReg(R12, 0x00000000)  returns 0x00 (0000ms, 0949ms total)
T3C78 001:644 JLINK_WriteReg(R13 (SP), 0x20001000)  returns 0x00 (0000ms, 0949ms total)
T3C78 001:644 JLINK_WriteReg(R14, 0x20000001)  returns 0x00 (0000ms, 0949ms total)
T3C78 001:644 JLINK_WriteReg(R15 (PC), 0x200000F4)  returns 0x00 (0000ms, 0949ms total)
T3C78 001:644 JLINK_WriteReg(XPSR, 0x01000000)  returns 0x00 (0000ms, 0949ms total)
T3C78 001:644 JLINK_WriteReg(MSP, 0x20001000)  returns 0x00 (0000ms, 0949ms total)
T3C78 001:644 JLINK_WriteReg(PSP, 0x20001000)  returns 0x00 (0000ms, 0949ms total)
T3C78 001:644 JLINK_WriteReg(CFBP, 0x00000000)  returns 0x00 (0000ms, 0949ms total)
T3C78 001:644 JLINK_SetBPEx(Addr = 0x20000000, Type = 0xFFFFFFF2)  returns 0x0000000E (0000ms, 0949ms total)
T3C78 001:644 JLINK_Go() (0004ms, 0953ms total)
T3C78 001:648 JLINK_IsHalted()  returns FALSE (0002ms, 0955ms total)
T3C78 001:654 JLINK_IsHalted()  returns FALSE (0002ms, 0955ms total)
T3C78 001:661 JLINK_IsHalted()  returns FALSE (0001ms, 0954ms total)
T3C78 001:663 JLINK_IsHalted()  returns FALSE (0001ms, 0954ms total)
T3C78 001:665 JLINK_IsHalted()  returns FALSE (0001ms, 0954ms total)
T3C78 001:667 JLINK_IsHalted()  returns FALSE (0001ms, 0954ms total)
T3C78 001:670 JLINK_IsHalted()  returns FALSE (0001ms, 0954ms total)
T3C78 001:672 JLINK_IsHalted()  returns FALSE (0002ms, 0955ms total)
T3C78 001:675 JLINK_IsHalted()  returns FALSE (0002ms, 0955ms total)
T3C78 001:681 JLINK_IsHalted() -- CPU_ReadMem(2 bytes @ 0x20000000)  returns TRUE (0006ms, 0959ms total)
T3C78 001:688 JLINK_ReadReg(R15 (PC))  returns 0x20000000 (0000ms, 0953ms total)
T3C78 001:688 JLINK_ClrBPEx(BPHandle = 0x0000000E)  returns 0x00 (0000ms, 0953ms total)
T3C78 001:688 JLINK_ReadReg(R0)  returns 0x00000000 (0000ms, 0953ms total)
T3C78 001:690 JLINK_WriteMem(0x20000164, 0x0400 Bytes, ...) -- Data:  0D 46 E1 B2 05 48 FF F7 C2 FE 00 BF 80 21 03 48 ... -- CPU_WriteMem(1024 bytes @ 0x20000164)  returns 0x400 (0013ms, 0966ms total)
T3C78 001:703 JLINK_WriteReg(R0, 0x08002800)  returns 0x00 (0000ms, 0966ms total)
T3C78 001:703 JLINK_WriteReg(R1, 0x00000400)  returns 0x00 (0000ms, 0966ms total)
T3C78 001:703 JLINK_WriteReg(R2, 0x20000164)  returns 0x00 (0000ms, 0966ms total)
T3C78 001:703 JLINK_WriteReg(R3, 0x00000000)  returns 0x00 (0000ms, 0966ms total)
T3C78 001:704 JLINK_WriteReg(R4, 0x00000000)  returns 0x00 (0000ms, 0967ms total)
T3C78 001:704 JLINK_WriteReg(R5, 0x00000000)  returns 0x00 (0000ms, 0967ms total)
T3C78 001:704 JLINK_WriteReg(R6, 0x00000000)  returns 0x00 (0000ms, 0967ms total)
T3C78 001:704 JLINK_WriteReg(R7, 0x00000000)  returns 0x00 (0000ms, 0967ms total)
T3C78 001:704 JLINK_WriteReg(R8, 0x00000000)  returns 0x00 (0000ms, 0967ms total)
T3C78 001:704 JLINK_WriteReg(R9, 0x20000160)  returns 0x00 (0000ms, 0967ms total)
T3C78 001:704 JLINK_WriteReg(R10, 0x00000000)  returns 0x00 (0000ms, 0967ms total)
T3C78 001:704 JLINK_WriteReg(R11, 0x00000000)  returns 0x00 (0000ms, 0967ms total)
T3C78 001:704 JLINK_WriteReg(R12, 0x00000000)  returns 0x00 (0000ms, 0967ms total)
T3C78 001:704 JLINK_WriteReg(R13 (SP), 0x20001000)  returns 0x00 (0000ms, 0967ms total)
T3C78 001:704 JLINK_WriteReg(R14, 0x20000001)  returns 0x00 (0000ms, 0967ms total)
T3C78 001:704 JLINK_WriteReg(R15 (PC), 0x200000F4)  returns 0x00 (0000ms, 0967ms total)
T3C78 001:704 JLINK_WriteReg(XPSR, 0x01000000)  returns 0x00 (0000ms, 0967ms total)
T3C78 001:704 JLINK_WriteReg(MSP, 0x20001000)  returns 0x00 (0000ms, 0967ms total)
T3C78 001:704 JLINK_WriteReg(PSP, 0x20001000)  returns 0x00 (0000ms, 0967ms total)
T3C78 001:704 JLINK_WriteReg(CFBP, 0x00000000)  returns 0x00 (0000ms, 0967ms total)
T3C78 001:704 JLINK_SetBPEx(Addr = 0x20000000, Type = 0xFFFFFFF2)  returns 0x0000000F (0001ms, 0968ms total)
T3C78 001:705 JLINK_Go() (0003ms, 0971ms total)
T3C78 001:708 JLINK_IsHalted()  returns FALSE (0003ms, 0974ms total)
T3C78 001:731 JLINK_IsHalted()  returns FALSE (0002ms, 0973ms total)
T3C78 001:734 JLINK_IsHalted()  returns FALSE (0001ms, 0972ms total)
T3C78 001:736 JLINK_IsHalted()  returns FALSE (0002ms, 0973ms total)
T3C78 001:746 JLINK_IsHalted() -- CPU_ReadMem(2 bytes @ 0x20000000)  returns TRUE (0006ms, 0977ms total)
T3C78 001:752 JLINK_ReadReg(R15 (PC))  returns 0x20000000 (0000ms, 0971ms total)
T3C78 001:752 JLINK_ClrBPEx(BPHandle = 0x0000000F)  returns 0x00 (0000ms, 0971ms total)
T3C78 001:752 JLINK_ReadReg(R0)  returns 0x00000000 (0000ms, 0971ms total)
T3C78 001:752 JLINK_WriteMem(0x20000164, 0x0400 Bytes, ...) -- Data:  C1 00 00 00 00 00 00 00 7C 46 42 46 7C 42 42 42 ... -- CPU_WriteMem(1024 bytes @ 0x20000164)  returns 0x400 (0013ms, 0984ms total)
T3C78 001:765 JLINK_WriteReg(R0, 0x08002C00)  returns 0x00 (0000ms, 0984ms total)
T3C78 001:765 JLINK_WriteReg(R1, 0x00000400)  returns 0x00 (0000ms, 0984ms total)
T3C78 001:765 JLINK_WriteReg(R2, 0x20000164)  returns 0x00 (0001ms, 0985ms total)
T3C78 001:766 JLINK_WriteReg(R3, 0x00000000)  returns 0x00 (0000ms, 0985ms total)
T3C78 001:766 JLINK_WriteReg(R4, 0x00000000)  returns 0x00 (0000ms, 0985ms total)
T3C78 001:766 JLINK_WriteReg(R5, 0x00000000)  returns 0x00 (0000ms, 0985ms total)
T3C78 001:766 JLINK_WriteReg(R6, 0x00000000)  returns 0x00 (0000ms, 0985ms total)
T3C78 001:766 JLINK_WriteReg(R7, 0x00000000)  returns 0x00 (0000ms, 0985ms total)
T3C78 001:766 JLINK_WriteReg(R8, 0x00000000)  returns 0x00 (0000ms, 0985ms total)
T3C78 001:766 JLINK_WriteReg(R9, 0x20000160)  returns 0x00 (0000ms, 0985ms total)
T3C78 001:766 JLINK_WriteReg(R10, 0x00000000)  returns 0x00 (0000ms, 0985ms total)
T3C78 001:766 JLINK_WriteReg(R11, 0x00000000)  returns 0x00 (0000ms, 0985ms total)
T3C78 001:766 JLINK_WriteReg(R12, 0x00000000)  returns 0x00 (0000ms, 0985ms total)
T3C78 001:766 JLINK_WriteReg(R13 (SP), 0x20001000)  returns 0x00 (0000ms, 0985ms total)
T3C78 001:766 JLINK_WriteReg(R14, 0x20000001)  returns 0x00 (0000ms, 0985ms total)
T3C78 001:766 JLINK_WriteReg(R15 (PC), 0x200000F4)  returns 0x00 (0000ms, 0985ms total)
T3C78 001:766 JLINK_WriteReg(XPSR, 0x01000000)  returns 0x00 (0000ms, 0985ms total)
T3C78 001:766 JLINK_WriteReg(MSP, 0x20001000)  returns 0x00 (0000ms, 0985ms total)
T3C78 001:766 JLINK_WriteReg(PSP, 0x20001000)  returns 0x00 (0001ms, 0986ms total)
T3C78 001:767 JLINK_WriteReg(CFBP, 0x00000000)  returns 0x00 (0000ms, 0986ms total)
T3C78 001:767 JLINK_SetBPEx(Addr = 0x20000000, Type = 0xFFFFFFF2)  returns 0x00000010 (0000ms, 0986ms total)
T3C78 001:767 JLINK_Go() (0004ms, 0990ms total)
T3C78 001:771 JLINK_IsHalted()  returns FALSE (0001ms, 0991ms total)
T3C78 001:776 JLINK_IsHalted()  returns FALSE (0002ms, 0992ms total)
T3C78 001:779 JLINK_IsHalted()  returns FALSE (0002ms, 0992ms total)
T3C78 001:788 JLINK_IsHalted()  returns FALSE (0001ms, 0991ms total)
T3C78 001:790 JLINK_IsHalted()  returns FALSE (0002ms, 0992ms total)
T3C78 001:793 JLINK_IsHalted()  returns FALSE (0001ms, 0991ms total)
T3C78 001:795 JLINK_IsHalted()  returns FALSE (0001ms, 0991ms total)
T3C78 001:812 JLINK_IsHalted() -- CPU_ReadMem(2 bytes @ 0x20000000)  returns TRUE (0006ms, 0996ms total)
T3C78 001:818 JLINK_ReadReg(R15 (PC))  returns 0x20000000 (0000ms, 0990ms total)
T3C78 001:818 JLINK_ClrBPEx(BPHandle = 0x00000010)  returns 0x00 (0000ms, 0990ms total)
T3C78 001:818 JLINK_ReadReg(R0)  returns 0x00000000 (0000ms, 0990ms total)
T3C78 001:818 JLINK_WriteMem(0x20000164, 0x0400 Bytes, ...) -- Data:  00 00 00 00 00 00 00 00 00 00 00 00 00 00 03 80 ... -- CPU_WriteMem(1024 bytes @ 0x20000164)  returns 0x400 (0013ms, 1003ms total)
T3C78 001:831 JLINK_WriteReg(R0, 0x08003000)  returns 0x00 (0000ms, 1003ms total)
T3C78 001:831 JLINK_WriteReg(R1, 0x00000400)  returns 0x00 (0000ms, 1003ms total)
T3C78 001:831 JLINK_WriteReg(R2, 0x20000164)  returns 0x00 (0000ms, 1003ms total)
T3C78 001:831 JLINK_WriteReg(R3, 0x00000000)  returns 0x00 (0000ms, 1003ms total)
T3C78 001:831 JLINK_WriteReg(R4, 0x00000000)  returns 0x00 (0000ms, 1003ms total)
T3C78 001:831 JLINK_WriteReg(R5, 0x00000000)  returns 0x00 (0000ms, 1003ms total)
T3C78 001:831 JLINK_WriteReg(R6, 0x00000000)  returns 0x00 (0001ms, 1004ms total)
T3C78 001:832 JLINK_WriteReg(R7, 0x00000000)  returns 0x00 (0000ms, 1004ms total)
T3C78 001:832 JLINK_WriteReg(R8, 0x00000000)  returns 0x00 (0000ms, 1004ms total)
T3C78 001:832 JLINK_WriteReg(R9, 0x20000160)  returns 0x00 (0000ms, 1004ms total)
T3C78 001:832 JLINK_WriteReg(R10, 0x00000000)  returns 0x00 (0000ms, 1004ms total)
T3C78 001:832 JLINK_WriteReg(R11, 0x00000000)  returns 0x00 (0000ms, 1004ms total)
T3C78 001:832 JLINK_WriteReg(R12, 0x00000000)  returns 0x00 (0000ms, 1004ms total)
